<Qucs Dataset 0.0.19>
<indep frequency 201>
  +3.30000000000000000000e+06
  +3.34339302999631175771e+06
  +3.38735665243270294741e+06
  +3.43189837025913363323e+06
  +3.47702578508487623185e+06
  +3.52274659847582690418e+06
  +3.56906861326887784526e+06
  +3.61599973490356607363e+06
  +3.66354797277124179527e+06
  +3.71172144158196588978e+06
  +3.76052836274939682335e+06
  +3.80997706579387187958e+06
  +3.86007598976394860074e+06
  +3.91083368467663647607e+06
  +3.96225881297656428069e+06
  +4.01436015101433591917e+06
  +4.06714659054432436824e+06
  +4.12062714024217054248e+06
  +4.17481092724221432582e+06
  +4.22970719869516976178e+06
  +4.28532532334625907242e+06
  +4.34167479313411470503e+06
  +4.39876522481069061905e+06
  +4.45660636158249154687e+06
  +4.51520807477337215096e+06
  +4.57458036550919990987e+06
  +4.63473336642467882484e+06
  +4.69567734339261054993e+06
  +4.75742269727589562535e+06
  +4.81997996570257097483e+06
  +4.88335982486419286579e+06
  +4.94757309133786614984e+06
  +5.01263072393222060055e+06
  +5.07854382555768266320e+06
  +5.14532364512132201344e+06
  +5.21298157944662030786e+06
  +5.28152917521848436445e+06
  +5.35097813095383346081e+06
  +5.42134029899810347706e+06
  +5.49262768754799384624e+06
  +5.56485246270082611591e+06
  +5.63802695053083449602e+06
  +5.71216363919277396053e+06
  +5.78727518105317931622e+06
  +5.86337439484964869916e+06
  +5.94047426787853427231e+06
  +6.01858795821137446910e+06
  +6.09772879694049898535e+06
  +6.17791029045413900167e+06
  +6.25914612274147290736e+06
  +6.34145015772796515375e+06
  +6.42483644164142198861e+06
  +6.50931920540916267782e+06
  +6.59491286708670482039e+06
  +6.68163203431839123368e+06
  +6.76949150683035887778e+06
  +6.85850627895631827414e+06
  +6.94869154219651501626e+06
  +7.04006268781035020947e+06
  +7.13263530944309942424e+06
  +7.22642520578716602176e+06
  +7.32144838327832520008e+06
  +7.41772105882743187249e+06
  +7.51525966258802916855e+06
  +7.61408084076037909836e+06
  +7.71420145843233726919e+06
  +7.81563860245759598911e+06
  +7.91840958437176980078e+06
  +8.02253194334684032947e+06
  +8.12802344918442144990e+06
  +8.23490210534841846675e+06
  +8.34318615203753300011e+06
  +8.45289406929819472134e+06
  +8.56404458017840795219e+06
  +8.67665665392308495939e+06
  +8.79074950921138375998e+06
  +8.90634261743661947548e+06
  +9.02345570602930337191e+06
  +9.14210876182388700545e+06
  +9.26232203446975722909e+06
  +9.38411603988710604608e+06
  +9.50751156376822479069e+06
  +9.63252966512485407293e+06
  +9.75919167988216690719e+06
  +9.88751922452000901103e+06
  +1.00175341997620444745e+07
  +1.01492587943133637309e+07
  +1.02827154886472970247e+07
  +1.04179270588419679552e+07
  +1.05549165804673377424e+07
  +1.06937074325233362615e+07
  +1.08343233014297802001e+07
  +1.09767881850687749684e+07
  +1.11211263968802485615e+07
  +1.12673625700113400817e+07
  +1.14155216615203768015e+07
  +1.15656289566361065954e+07
  +1.17177100730729345232e+07
  +1.18717909654029142112e+07
  +1.20278979294852409512e+07
  +1.21860576069539487362e+07
  +1.23462969897646587342e+07
  +1.25086434248010925949e+07
  +1.26731246185421738774e+07
  +1.28397686417904775590e+07
  +1.30086039344628769904e+07
  +1.31796593104441780597e+07
  +1.33529639625045657158e+07
  +1.35285474672817308456e+07
  +1.37064397903284821659e+07
  +1.38866712912267763168e+07
  +1.40692727287689372897e+07
  +1.42542752662070486695e+07
  +1.44417104765713550150e+07
  +1.46316103480586018413e+07
  +1.48240072894912287593e+07
  +1.50189341358483303338e+07
  +1.52164241538693923503e+07
  +1.54165110477316528559e+07
  +1.56192289648021701723e+07
  +1.58246125014654770494e+07
  +1.60326967090279366821e+07
  +1.62435170996996387839e+07
  +1.64571096526550538838e+07
  +1.66735108201733157039e+07
  +1.68927575338592603803e+07
  +1.71148872109462879598e+07
  +1.73399377606820687652e+07
  +1.75679475907982736826e+07
  +1.77989556140652857721e+07
  +1.80330012549332156777e+07
  +1.82701244562601372600e+07
  +1.85103656861288845539e+07
  +1.87537659447533972561e+07
  +1.90003667714759707451e+07
  +1.92502102518564537168e+07
  +1.95033390248546749353e+07
  +1.97597962901073247194e+07
  +2.00196258153005540371e+07
  +2.02828719436394274235e+07
  +2.05495796014157049358e+07
  +2.08197943056750446558e+07
  +2.10935621719851084054e+07
  +2.13709299223057217896e+07
  +2.16519448929626010358e+07
  +2.19366550427258759737e+07
  +2.22251089609948955476e+07
  +2.25173558760905824602e+07
  +2.28134456636568903923e+07
  +2.31134288551727421582e+07
  +2.34173566465758159757e+07
  +2.37252809069998189807e+07
  +2.40372541876265928149e+07
  +2.43533297306546755135e+07
  +2.46735614783856943250e+07
  +2.49980040824303776026e+07
  +2.53267129130354784429e+07
  +2.56597440685334578156e+07
  +2.59971543849163576961e+07
  +2.63390014455355852842e+07
  +2.66853435909292325377e+07
  +2.70362399287786446512e+07
  +2.73917503439959101379e+07
  +2.77519355089439488947e+07
  +2.81168568937910161912e+07
  +2.84865767770014032722e+07
  +2.88611582559640370309e+07
  +2.92406652577608153224e+07
  +2.96251625500766001642e+07
  +3.00147157522526942194e+07
  +3.04093913464855104685e+07
  +3.08092566891726739705e+07
  +3.12143800224082358181e+07
  +3.16248304856290444732e+07
  +3.20406781274142526090e+07
  +3.24619939174400158226e+07
  +3.28888497585914060473e+07
  +3.33213184992334544659e+07
  +3.37594739456437304616e+07
  +3.42033908746082931757e+07
  +3.46531450461832880974e+07
  +3.51088132166243717074e+07
  +3.55704731514861509204e+07
  +3.60382036388938650489e+07
  +3.65120845029895454645e+07
  +3.69921966175550296903e+07
  +3.74786219198141396046e+07
  +3.79714434244162440300e+07
  +3.84707452376038059592e+07
  +3.89766125715661644936e+07
  +3.94891317589821070433e+07
  +4.00083902677535787225e+07
  +4.05344767159332111478e+07
  +4.10674808868481591344e+07
  +4.16074937444226965308e+07
  +4.21546074487024247646e+07
  +4.27089153715825006366e+07
  +4.32705121127428188920e+07
  +4.38394935157925337553e+07
  +4.44159566846270561218e+07
  +4.50000000000000670552e+07
</indep>
<dep dBS11 frequency>
  -2.68872297975884251287e+01
  -2.67859979223291588823e+01
  -2.66850997760440549200e+01
  -2.65845447453034253726e+01
  -2.64843424971490577491e+01
  -2.63845029884371804485e+01
  -2.62850364755488286050e+01
  -2.61859535244858818714e+01
  -2.60872650213712304890e+01
  -2.59889821833730572109e+01
  -2.58911165700744625440e+01
  -2.57936800953103819722e+01
  -2.56966850394960424353e+01
  -2.56001440624716920524e+01
  -2.55040702168905113467e+01
  -2.54084769621782342597e+01
  -2.53133781790943892531e+01
  -2.52187881849275719048e+01
  -2.51247217493588053117e+01
  -2.50311941110295954616e+01
  -2.49382209948532249655e+01
  -2.48458186301110828254e+01
  -2.47540037693779382266e+01
  -2.46627937083235124760e+01
  -2.45722063064407620914e+01
  -2.44822600087547570524e+01
  -2.43929738685699071254e+01
  -2.43043675713172220298e+01
  -2.42164614595679381637e+01
  -2.41292765592842641809e+01
  -2.40428346073835008667e+01
  -2.39571580806972015409e+01
  -2.38722702264132209393e+01
  -2.37881950940948954099e+01
  -2.37049575693792036191e+01
  -2.36225834094629192350e+01
  -2.35410992804949970036e+01
  -2.34605327970020560713e+01
  -2.33809125634842907004e+01
  -2.33022682183299920666e+01
  -2.32246304802090577368e+01
  -2.31480311971188825737e+01
  -2.30725033982704275104e+01
  -2.29980813490183138015e+01
  -2.29248006090558575920e+01
  -2.28526980941149986393e+01
  -2.27818121414324146201e+01
  -2.27121825792655798182e+01
  -2.26438508007683303447e+01
  -2.25768598425634863247e+01
  -2.25112544683808835089e+01
  -2.24470812581635073002e+01
  -2.23843887030825641205e+01
  -2.23232273069439628443e+01
  -2.22636496945159798599e+01
  -2.22057107273593103969e+01
  -2.21494676277991189295e+01
  -2.20949801117430553177e+01
  -2.20423105311214406754e+01
  -2.19915240268065481644e+01
  -2.19426886929587503516e+01
  -2.18958757538487773786e+01
  -2.18511597543197595428e+01
  -2.18086187651817517974e+01
  -2.17683346049772907804e+01
  -2.17303930797204536418e+01
  -2.16948842423997270146e+01
  -2.16619026742460505375e+01
  -2.16315477900096411190e+01
  -2.16039241697638395578e+01
  -2.15791419200701639625e+01
  -2.15573170676987047045e+01
  -2.15385719895137910385e+01
  -2.15230358826118397531e+01
  -2.15108452793507964884e+01
  -2.15021446125493582713e+01
  -2.14970868368765266609e+01
  -2.14958341133169312798e+01
  -2.14985585646070056498e+01
  -2.15054431107220480612e+01
  -2.15166823948858088045e+01
  -2.15324838122178690014e+01
  -2.15530686550802208501e+01
  -2.15786733914965331849e+01
  -2.16095510957791177020e+01
  -2.16459730538048091830e+01
  -2.16882305693614974018e+01
  -2.17366370027964279643e+01
  -2.17915300790396386788e+01
  -2.18532745092028513056e+01
  -2.19222649786988341702e+01
  -2.19989295656083854169e+01
  -2.20837336663980892126e+01
  -2.21771845227807773426e+01
  -2.22798364644717494798e+01
  -2.23922970090922603958e+01
  -2.25152339942177164289e+01
  -2.26493839598664337132e+01
  -2.27955620557339884158e+01
  -2.29546738205573532809e+01
  -2.31277292772282123678e+01
  -2.33158599152673318144e+01
  -2.35203393043195241319e+01
  -2.37426083162672085791e+01
  -2.39843062556229540405e+01
  -2.42473096472528553136e+01
  -2.45337810667964859590e+01
  -2.48462313146857454171e+01
  -2.51875995753099104491e+01
  -2.55613582044650797798e+01
  -2.59716518415686756782e+01
  -2.64234853139459673343e+01
  -2.69229824584140864374e+01
  -2.74777506579796977348e+01
  -2.80974076050149932371e+01
  -2.87943655298599026082e+01
  -2.95850405180877444877e+01
  -3.04917975415854201060e+01
  -3.15462438557889548463e+01
  -3.27951760191997152560e+01
  -3.43122487506268356583e+01
  -3.62235839101862495681e+01
  -3.87737832381805773707e+01
  -4.25459379187260822164e+01
  -4.96898966624539042414e+01
  -5.97596899152587823778e+01
  -4.52664019523833189851e+01
  -4.00037216526929668703e+01
  -3.66831491044543582802e+01
  -3.42387327056888395305e+01
  -3.22971207976659471228e+01
  -3.06833112323467886995e+01
  -2.93011751610211774732e+01
  -2.80922792312264206771e+01
  -2.70185117314072513750e+01
  -2.60537000082292244940e+01
  -2.51791567586525673050e+01
  -2.43811348849531803751e+01
  -2.36492877707437934021e+01
  -2.29756944640645670574e+01
  -2.23542194920602810271e+01
  -2.17800799624738274929e+01
  -2.12495461922646633468e+01
  -2.07597314874625418213e+01
  -2.03084435590677401251e+01
  -1.98940801449212827379e+01
  -1.95155576930373513278e+01
  -1.91722660631437840095e+01
  -1.88640450405541990619e+01
  -1.85911805874491307122e+01
  -1.83544205515024252406e+01
  -1.81550112964450818254e+01
  -1.79947586867692912449e+01
  -1.78761193768998438713e+01
  -1.78023318924564577515e+01
  -1.77776022976430816414e+01
  -1.78073676057647567461e+01
  -1.78986738371894240629e+01
  -1.80607291718306299799e+01
  -1.83057347592822736715e+01
  -1.86501748911140587950e+01
  -1.91169057519752065843e+01
  -1.97387178359415642603e+01
  -2.05648268325009340174e+01
  -2.16737645926448543321e+01
  -2.32021637309971673346e+01
  -2.54209586607562485483e+01
  -2.90015471016444053021e+01
  -3.66899265728940235931e+01
  -4.07530390059484304288e+01
  -2.88308996862865143385e+01
  -2.35305573337639941656e+01
  -1.99475495239519098334e+01
  -1.71829245538196744292e+01
  -1.49072906120786559114e+01
  -1.29646797044413109035e+01
  -1.12704456602959961486e+01
  -9.77473761660783857508e+00
  -8.44655132405085140590e+00
  -7.26567722985188524376e+00
  -6.21813779849869430194e+00
  -5.29337244278526242169e+00
  -4.48243202783269545364e+00
  -3.77685479411816160678e+00
  -3.16805659029396657900e+00
  -2.64711625017694096584e+00
  -2.20484049363472944805e+00
  -1.83199140190889719904e+00
  -1.51957159469674873975e+00
  -1.25908896328521002772e+00
  -1.04275586618562821073e+00
  -8.63607469245260106483e-01
  -7.15544670356155321223e-01
  -5.93317821901810482643e-01
  -4.92470383947127721136e-01
  -4.09259814847452996212e-01
  -3.40569120280857506877e-01
  -2.83818296864942420932e-01
  -2.36881315195517389016e-01
  -1.98011585685842594895e-01
  -1.65777009324105772947e-01
</dep>
<dep dBS21 frequency>
  -8.90238505212871504557e-03
  -9.11255299565832260766e-03
  -9.32697040566082304081e-03
  -9.54568356323223440874e-03
  -9.76873676278245881011e-03
  -9.99617211394859296603e-03
  -1.02280293324178636616e-02
  -1.04643455194189920893e-02
  -1.07051549293305375832e-02
  -1.09504887249043739161e-02
  -1.12003747198194582996e-02
  -1.14548371078835083819e-02
  -1.17138961785815502725e-02
  -1.19775680183950988811e-02
  -1.22458641974940354163e-02
  -1.25187914412725614932e-02
  -1.27963512862426416483e-02
  -1.30785397199704341020e-02
  -1.33653468043605835186e-02
  -1.36567562820406433743e-02
  -1.39527451653682112165e-02
  -1.42532833075468077372e-02
  -1.45583329556452610587e-02
  -1.48678482849360169699e-02
  -1.51817749144398557448e-02
  -1.55000494031731841926e-02
  -1.58225987269842022220e-02
  -1.61493397357321023800e-02
  -1.64801785905789623110e-02
  -1.68150101813752776703e-02
  -1.71537175241511796742e-02
  -1.74961711385996573909e-02
  -1.78422284058992290656e-02
  -1.81917329069299811561e-02
  -1.85445137413656480074e-02
  -1.89003848280167585649e-02
  -1.92591441870738934450e-02
  -1.96205732049668651884e-02
  -1.99844358827835563708e-02
  -2.03504780693064719899e-02
  -2.07184266799508992607e-02
  -2.10879889031468023552e-02
  -2.14588513958089387168e-02
  -2.18306794699793457748e-02
  -2.22031162728593932376e-02
  -2.25757819627885117364e-02
  -2.29482728840990843344e-02
  -2.33201607440460187415e-02
  -2.36909917955590576533e-02
  -2.40602860296972691223e-02
  -2.44275363824823718573e-02
  -2.47922079609669346323e-02
  -2.51537372940959444434e-02
  -2.55115316144215592553e-02
  -2.58649681773017517394e-02
  -2.62133936248615667663e-02
  -2.65561234027702347538e-02
  -2.68924412384505782947e-02
  -2.72215986902686266080e-02
  -2.75428147779321029487e-02
  -2.78552757053857034941e-02
  -2.81581346881926916637e-02
  -2.84505118985754132388e-02
  -2.87314945421619713506e-02
  -2.90001370817520170986e-02
  -2.92554616242475459820e-02
  -2.94964584885252373292e-02
  -2.97220869728248883457e-02
  -2.99312763418114607950e-02
  -3.01229270547530222912e-02
  -3.02959122575653314047e-02
  -3.04490795628905089321e-02
  -3.05812531440417430251e-02
  -3.06912361697641647429e-02
  -3.07778136086641271318e-02
  -3.08397554332210319106e-02
  -3.08758202553056047834e-02
  -3.08847594259586549770e-02
  -3.08653216342048702936e-02
  -3.08162580406503711083e-02
  -3.07363279828759029810e-02
  -3.06243052910493002150e-02
  -3.04789852527133191262e-02
  -3.02991922668331484236e-02
  -3.00837882275557660927e-02
  -2.98316816781710701656e-02
  -2.95418377760022221601e-02
  -2.92132891079429982129e-02
  -2.88451473955031074958e-02
  -2.84366161264355647720e-02
  -2.79870041477225939275e-02
  -2.74957402511959089764e-02
  -2.69623887793612355968e-02
  -2.63866662733376090844e-02
  -2.57684591786801545088e-02
  -2.51078426169306541393e-02
  -2.44051002212390330537e-02
  -2.36607450233209254398e-02
  -2.28755413658199222016e-02
  -2.20505277985801433072e-02
  -2.11870408994935983948e-02
  -2.02867399398876935290e-02
  -1.93516322904967105756e-02
  -1.83840994370347600440e-02
  -1.73869234432911627664e-02
  -1.63633136650102352372e-02
  -1.53169334781521337963e-02
  -1.42519267413253672427e-02
  -1.31729436629363285544e-02
  -1.20851656891135701699e-02
  -1.09943289682499795862e-02
  -9.90674588188786460485e-03
  -8.82932405958090221754e-03
  -7.76958221673567771964e-03
  -6.73566207014265373731e-03
  -5.73633549492220257138e-03
  -4.78100599053590293031e-03
  -3.87970342188896210461e-03
  -3.04307089545840028788e-03
  -2.28234252145623683558e-03
  -1.60931070168573954124e-03
  -1.03628147197585185509e-03
  -5.76016319635922055195e-04
  -2.41658793173946833711e-04
  -4.66441278761061300972e-05
  -4.59003027067663024811e-06
  -1.29166703030319455613e-04
  -4.33944155031621944026e-04
  -9.32214836873790104327e-04
  -1.63678967813926613470e-03
  -2.55976568917294818040e-03
  -3.71226343794382220020e-03
  -5.10413293468107640005e-03
  -6.74362676826368266647e-03
  -8.63703975464762997716e-03
  -1.07883148994175753765e-02
  -1.31986161644396353398e-02
  -1.58658693890073657085e-02
  -1.87842737778693667783e-02
  -2.19437876673371917713e-02
  -2.53295938578489629456e-02
  -2.89215517070115155085e-02
  -3.26936454727424150035e-02
  -3.66134411576240909048e-02
  -4.06415674269253179851e-02
  -4.47312401732066072801e-02
  -4.88278551296775914503e-02
  -5.28686787826915943755e-02
  -5.67826749417853493540e-02
  -6.04905129999783117145e-02
  -6.39048145420048896437e-02
  -6.69307080209100152546e-02
  -6.94667773268359822758e-02
  -7.14065099642507694622e-02
  -7.26403751416476867186e-02
  -7.30586924468227261187e-02
  -7.25554891865188011923e-02
  -7.10335903112294941852e-02
  -6.84112405739397411164e-02
  -6.46306255010449803855e-02
  -5.96687367108975491581e-02
  -5.35511178197842496740e-02
  -4.63691271934672799571e-02
  -3.83014568633328819636e-02
  -2.96407402905206340815e-02
  -2.08261421893441399378e-02
  -1.24828121885456663070e-02
  -5.46893824480682629735e-03
  -9.30761029347858454865e-04
  -3.65173008287174544022e-04
  -5.68825063746506050244e-03
  -1.93060542864785383843e-02
  -4.41811017013968021505e-02
  -8.38840338271810842530e-02
  -1.42615427481833700885e-01
  -2.25178339227198542893e-01
  -3.36879710129846743349e-01
  -4.83340823942848329953e-01
  -6.70206514998458291466e-01
  -9.02761538036773503180e-01
  -1.18548883947876526612e+00
  -1.52163165487607110471e+00
  -1.91283822803052117045e+00
  -2.35896357955230717707e+00
  -2.85807350619555755600e+00
  -3.40664996997022839764e+00
  -3.99995133552650017350e+00
  -4.63245245446440545578e+00
  -5.29828607505925930354e+00
  -5.99162448076622577986e+00
  -6.70696758436451911933e+00
  -7.43932985105188659958e+00
  -8.18433682453474098395e+00
  -8.93825123708384694510e+00
  -9.69795054277494728012e+00
  -1.04608751538946833648e+01
  -1.12249622603692937872e+01
  -1.19885755605997097462e+01
  -1.27504373758197644406e+01
  -1.35095667247071897776e+01
  -1.42652249500787764447e+01
</dep>
<dep S[1,1] frequency>
  -1.53571265301078556387e-02-j4.25665252108336639170e-02
  -1.57330746225178667863e-02-j4.29943421727423738532e-02
  -1.61173790483309202493e-02-j4.34228041575677459196e-02
  -1.65101789927270953262e-02-j4.38517397508933967631e-02
  -1.69116132083788062168e-02-j4.42809693398092812933e-02
  -1.73218198053132418912e-02-j4.47103048471662392616e-02
  -1.77409360262655163565e-02-j4.51395494609992189994e-02
  -1.81690980067887378202e-02-j4.55684973592993536329e-02
  -1.86064405193574443353e-02-j4.59969334303485591353e-02
  -1.90530967006740138692e-02-j4.64246329888597999980e-02
  -1.95091977613551723070e-02-j4.68513614882000856143e-02
  -1.99748726771454450379e-02-j4.72768742290140472906e-02
  -2.04502478607803718502e-02-j4.77009160645975177628e-02
  -2.09354468135782186000e-02-j4.81232211034233192670e-02
  -2.14305897558227688438e-02-j4.85435124092587003131e-02
  -2.19357932349585268983e-02-j4.89615016993665136402e-02
  -2.24511697105883381576e-02-j4.93768890413374961224e-02
  -2.29768271152407041469e-02-j4.97893625491506730540e-02
  -2.35128683898294527088e-02-j5.01985980791271393930e-02
  -2.40593909927108093316e-02-j5.06042589264995151810e-02
  -2.46164863812021600387e-02-j5.10059955233952005971e-02
  -2.51842394644014172522e-02-j5.14034451391001401266e-02
  -2.57627280261180438559e-02-j5.17962315835500813899e-02
  -2.63520221166928386713e-02-j5.21839649150814821610e-02
  -2.69521834124646642028e-02-j5.25662411535598173007e-02
  -2.75632645416078805867e-02-j5.29426420001025549444e-02
  -2.81853083750490431003e-02-j5.33127345647098835335e-02
  -2.88183472811433631644e-02-j5.36760711032277793020e-02
  -2.94624023427754108684e-02-j5.40321887651785334739e-02
  -3.01174825355313320607e-02-j5.43806093541171348127e-02
